CITIFILE A.01.01
#Momentum: B.12.00.024 (*) built: Jan 14 2016 
#Momentum Date and Time: Fri Oct 27 16:10:28 2023

NAME Momentum.SP

#  mode: MW    project: proj

#eesof Port[1] P1
#eesof Port[2] P2
#eesof Port[3] P3

CONSTANT NBR_OF_PORTS 3

CONSTANT NORMALIZATION 1

VAR freq MAG 21

DATA S[1,1] RI
DATA S[1,2] RI
DATA S[1,3] RI
DATA S[2,1] RI
DATA S[2,2] RI
DATA S[2,3] RI
DATA S[3,1] RI
DATA S[3,2] RI
DATA S[3,3] RI
DATA S_50[1,1] RI
DATA S_50[1,2] RI
DATA S_50[1,3] RI
DATA S_50[2,1] RI
DATA S_50[2,2] RI
DATA S_50[2,3] RI
DATA S_50[3,1] RI
DATA S_50[3,2] RI
DATA S_50[3,3] RI
DATA S_Z0[1,1] RI
DATA S_Z0[1,2] RI
DATA S_Z0[1,3] RI
DATA S_Z0[2,1] RI
DATA S_Z0[2,2] RI
DATA S_Z0[2,3] RI
DATA S_Z0[3,1] RI
DATA S_Z0[3,2] RI
DATA S_Z0[3,3] RI
DATA GAMMA[1] RI
DATA GAMMA[2] RI
DATA GAMMA[3] RI
DATA Z0[1] RI
DATA Z0[2] RI
DATA Z0[3] RI
DATA PORTZ[1] RI
DATA PORTZ[2] RI
DATA PORTZ[3] RI

VAR_LIST_BEGIN
	 2300000000
	 2310000000
	 2320000000
	 2330000000
	 2340000000
	 2350000000
	 2360000000
	 2370000000
	 2380000000
	 2390000000
	 2400000000
	 2410000000
	 2420000000
	 2430000000
	 2440000000
	 2450000000
	 2460000000
	 2470000000
	 2480000000
	 2490000000
	 2500000000
VAR_LIST_END

BEGIN
	-0.0749546446,	 0.0563789547
	-0.0755664579,	 0.0582370808
	-0.0761432849,	 0.0601080155
	-0.0766845007,	 0.0619900779
	-0.0771896332,	 0.0638813001
	-0.0776581468,	 0.0657795092
	-0.0780908235,	 0.0676817773
	-0.0784880901,	 0.0695852157
	-0.0788515071,	 0.0714864971
	-0.0791837766,	 0.073382175
	-0.0794890657,	 0.0752690387
	-0.0797732766,	 0.077144748
	-0.0800440603,	 0.0790087416
	-0.0803103286,	 0.0808634036
	-0.0805809684,	 0.0827151425
	-0.0808627845,	 0.0845747739
	-0.0811580444,	 0.0864566076
	-0.0814627673,	 0.0883759173
	-0.0817657796,	 0.0903457005
	-0.0820516862,	 0.0923731256
	-0.0823040879,	 0.0944584375
END
BEGIN
	-0.0218110314,	 0.178488563
	-0.019707224,	 0.18033193
	-0.0176635136,	 0.182201696
	-0.0156857233,	 0.184120446
	-0.0137770224,	 0.186116181
	-0.0119366892,	 0.188223754
	-0.010155383,	 0.190483299
	-0.00841463544,	 0.192943452
	-0.00668001265,	 0.195658215
	-0.00489561636,	 0.198684123
	-0.00297771308,	 0.202073405
	-0.000809522374,	 0.205862184
	 0.00175927018,	 0.210052855
	 0.00490347392,	 0.21459203
	 0.00879852817,	 0.219349881
	 0.0135807176,	 0.224111697
	 0.0193001385,	 0.228595253
	 0.0258861115,	 0.232498627
	 0.0331358219,	 0.235561473
	 0.040761535,	 0.237633149
	 0.0484544867,	 0.238694449
END
BEGIN
	 0.782640458,	-0.517748872
	 0.779640795,	-0.519092438
	 0.776614697,	-0.520396586
	 0.773558644,	-0.521658748
	 0.770468656,	-0.522875095
	 0.767340516,	-0.524040105
	 0.764169766,	-0.525146089
	 0.760952785,	-0.526182544
	 0.757687383,	-0.527135617
	 0.754374364,	-0.527987664
	 0.751019639,	-0.528717344
	 0.747636913,	-0.529300673
	 0.744250558,	-0.529713763
	 0.740897649,	-0.529937766
	 0.737627421,	-0.529965956
	 0.734496249,	-0.529811349
	 0.731557351,	-0.529511419
	 0.728847605,	-0.529125985
	 0.726376571,	-0.528728727
	 0.7241227,	-0.528389453
	 0.722040296,	-0.528160303
END
BEGIN
	-0.0218110314,	 0.178488563
	-0.019707224,	 0.18033193
	-0.0176635136,	 0.182201696
	-0.0156857233,	 0.184120446
	-0.0137770224,	 0.186116181
	-0.0119366892,	 0.188223754
	-0.010155383,	 0.190483299
	-0.00841463544,	 0.192943452
	-0.00668001265,	 0.195658215
	-0.00489561636,	 0.198684123
	-0.00297771308,	 0.202073405
	-0.000809522374,	 0.205862184
	 0.00175927018,	 0.210052855
	 0.00490347392,	 0.21459203
	 0.00879852817,	 0.219349881
	 0.0135807176,	 0.224111697
	 0.0193001385,	 0.228595253
	 0.0258861115,	 0.232498627
	 0.0331358219,	 0.235561473
	 0.040761535,	 0.237633149
	 0.0484544867,	 0.238694449
END
BEGIN
	-0.00260053847,	 0.806507761
	 0.029493415,	 0.795378268
	 0.0629683342,	 0.782227044
	 0.0978985923,	 0.76662832
	 0.134310067,	 0.748054127
	 0.172171205,	 0.72584876
	 0.211245671,	 0.699247805
	 0.251168673,	 0.667332089
	 0.291259217,	 0.629074811
	 0.33042946,	 0.583396895
	 0.367060727,	 0.529295611
	 0.398902427,	 0.466068328
	 0.423057667,	 0.39364809
	 0.436151139,	 0.313025037
	 0.434778161,	 0.22664597
	 0.416260588,	 0.138584596
	 0.379553106,	 0.0542240832
	 0.325925156,	-0.0206467171
	 0.259117691,	-0.0810152521
	 0.184545466,	-0.123922673
	 0.108057451,	-0.148907044
END
BEGIN
	-0.0728601813,	 0.247084426
	-0.0657666163,	 0.256007422
	-0.0579625422,	 0.264788848
	-0.0493727221,	 0.273367579
	-0.0399135984,	 0.281658788
	-0.029491597,	 0.289548718
	-0.0180259561,	 0.296873414
	-0.00543476306,	 0.303424831
	 0.00833128701,	 0.30892781
	 0.0232647631,	 0.313034795
	 0.0392613807,	 0.315326754
	 0.0560684923,	 0.315332951
	 0.0732297634,	 0.312582243
	 0.0900453927,	 0.306696948
	 0.105580675,	 0.297527604
	 0.118759847,	 0.285299654
	 0.128561258,	 0.270706553
	 0.134269964,	 0.254873894
	 0.13568636,	 0.23918939
	 0.133203628,	 0.224980247
	 0.127679073,	 0.213243734
END
BEGIN
	 0.782640458,	-0.517748872
	 0.779640795,	-0.519092438
	 0.776614697,	-0.520396586
	 0.773558644,	-0.521658748
	 0.770468656,	-0.522875095
	 0.767340516,	-0.524040105
	 0.764169766,	-0.525146089
	 0.760952785,	-0.526182544
	 0.757687383,	-0.527135617
	 0.754374364,	-0.527987664
	 0.751019639,	-0.528717344
	 0.747636913,	-0.529300673
	 0.744250558,	-0.529713763
	 0.740897649,	-0.529937766
	 0.737627421,	-0.529965956
	 0.734496249,	-0.529811349
	 0.731557351,	-0.529511419
	 0.728847605,	-0.529125985
	 0.726376571,	-0.528728727
	 0.7241227,	-0.528389453
	 0.722040296,	-0.528160303
END
BEGIN
	-0.0728601813,	 0.247084426
	-0.0657666163,	 0.256007422
	-0.0579625422,	 0.264788848
	-0.0493727221,	 0.273367579
	-0.0399135984,	 0.281658788
	-0.029491597,	 0.289548718
	-0.0180259561,	 0.296873414
	-0.00543476306,	 0.303424831
	 0.00833128701,	 0.30892781
	 0.0232647631,	 0.313034795
	 0.0392613807,	 0.315326754
	 0.0560684923,	 0.315332951
	 0.0732297634,	 0.312582243
	 0.0900453927,	 0.306696948
	 0.105580675,	 0.297527604
	 0.118759847,	 0.285299654
	 0.128561258,	 0.270706553
	 0.134269964,	 0.254873894
	 0.13568636,	 0.23918939
	 0.133203628,	 0.224980247
	 0.127679073,	 0.213243734
END
BEGIN
	-0.0164471619,	-0.0419806916
	-0.0189449009,	-0.0401518159
	-0.0213084722,	-0.0381681224
	-0.0235140074,	-0.0360286408
	-0.0255326743,	-0.0337349294
	-0.0273295312,	-0.0312915752
	-0.0288640246,	-0.0287134357
	-0.0300883816,	-0.0260220826
	-0.0309495979,	-0.0232550524
	-0.0313923966,	-0.0204704376
	-0.0313657765,	-0.0177530745
	-0.0308343595,	-0.0152195175
	-0.0297953378,	-0.0130185914
	-0.0282996626,	-0.0113226811
	-0.026471956,	-0.0103048241
	-0.0245187341,	-0.0101004893
	-0.0227119981,	-0.0107617311
	-0.0213432541,	-0.0122228405
	-0.0206626028,	-0.0142954825
	-0.0208163971,	-0.0167069178
	-0.0218247869,	-0.0191637078
END
BEGIN
	-0.0749546446,	 0.0563789547
	-0.0755664579,	 0.0582370808
	-0.0761432849,	 0.0601080155
	-0.0766845007,	 0.0619900779
	-0.0771896332,	 0.0638813001
	-0.0776581468,	 0.0657795092
	-0.0780908235,	 0.0676817773
	-0.0784880901,	 0.0695852157
	-0.0788515071,	 0.0714864971
	-0.0791837766,	 0.073382175
	-0.0794890657,	 0.0752690387
	-0.0797732766,	 0.077144748
	-0.0800440603,	 0.0790087416
	-0.0803103286,	 0.0808634036
	-0.0805809684,	 0.0827151425
	-0.0808627845,	 0.0845747739
	-0.0811580444,	 0.0864566076
	-0.0814627673,	 0.0883759173
	-0.0817657796,	 0.0903457005
	-0.0820516862,	 0.0923731256
	-0.0823040879,	 0.0944584375
END
BEGIN
	-0.0218110314,	 0.178488563
	-0.019707224,	 0.18033193
	-0.0176635136,	 0.182201696
	-0.0156857233,	 0.184120446
	-0.0137770224,	 0.186116181
	-0.0119366892,	 0.188223754
	-0.010155383,	 0.190483299
	-0.00841463544,	 0.192943452
	-0.00668001265,	 0.195658215
	-0.00489561636,	 0.198684123
	-0.00297771308,	 0.202073405
	-0.000809522374,	 0.205862184
	 0.00175927018,	 0.210052855
	 0.00490347392,	 0.21459203
	 0.00879852817,	 0.219349881
	 0.0135807176,	 0.224111697
	 0.0193001385,	 0.228595253
	 0.0258861115,	 0.232498627
	 0.0331358219,	 0.235561473
	 0.040761535,	 0.237633149
	 0.0484544867,	 0.238694449
END
BEGIN
	 0.782640458,	-0.517748872
	 0.779640795,	-0.519092438
	 0.776614697,	-0.520396586
	 0.773558644,	-0.521658748
	 0.770468656,	-0.522875095
	 0.767340516,	-0.524040105
	 0.764169766,	-0.525146089
	 0.760952785,	-0.526182544
	 0.757687383,	-0.527135617
	 0.754374364,	-0.527987664
	 0.751019639,	-0.528717344
	 0.747636913,	-0.529300673
	 0.744250558,	-0.529713763
	 0.740897649,	-0.529937766
	 0.737627421,	-0.529965956
	 0.734496249,	-0.529811349
	 0.731557351,	-0.529511419
	 0.728847605,	-0.529125985
	 0.726376571,	-0.528728727
	 0.7241227,	-0.528389453
	 0.722040296,	-0.528160303
END
BEGIN
	-0.0218110314,	 0.178488563
	-0.019707224,	 0.18033193
	-0.0176635136,	 0.182201696
	-0.0156857233,	 0.184120446
	-0.0137770224,	 0.186116181
	-0.0119366892,	 0.188223754
	-0.010155383,	 0.190483299
	-0.00841463544,	 0.192943452
	-0.00668001265,	 0.195658215
	-0.00489561636,	 0.198684123
	-0.00297771308,	 0.202073405
	-0.000809522374,	 0.205862184
	 0.00175927018,	 0.210052855
	 0.00490347392,	 0.21459203
	 0.00879852817,	 0.219349881
	 0.0135807176,	 0.224111697
	 0.0193001385,	 0.228595253
	 0.0258861115,	 0.232498627
	 0.0331358219,	 0.235561473
	 0.040761535,	 0.237633149
	 0.0484544867,	 0.238694449
END
BEGIN
	-0.00260053847,	 0.806507761
	 0.029493415,	 0.795378268
	 0.0629683342,	 0.782227044
	 0.0978985923,	 0.76662832
	 0.134310067,	 0.748054127
	 0.172171205,	 0.72584876
	 0.211245671,	 0.699247805
	 0.251168673,	 0.667332089
	 0.291259217,	 0.629074811
	 0.33042946,	 0.583396895
	 0.367060727,	 0.529295611
	 0.398902427,	 0.466068328
	 0.423057667,	 0.39364809
	 0.436151139,	 0.313025037
	 0.434778161,	 0.22664597
	 0.416260588,	 0.138584596
	 0.379553106,	 0.0542240832
	 0.325925156,	-0.0206467171
	 0.259117691,	-0.0810152521
	 0.184545466,	-0.123922673
	 0.108057451,	-0.148907044
END
BEGIN
	-0.0728601813,	 0.247084426
	-0.0657666163,	 0.256007422
	-0.0579625422,	 0.264788848
	-0.0493727221,	 0.273367579
	-0.0399135984,	 0.281658788
	-0.029491597,	 0.289548718
	-0.0180259561,	 0.296873414
	-0.00543476306,	 0.303424831
	 0.00833128701,	 0.30892781
	 0.0232647631,	 0.313034795
	 0.0392613807,	 0.315326754
	 0.0560684923,	 0.315332951
	 0.0732297634,	 0.312582243
	 0.0900453927,	 0.306696948
	 0.105580675,	 0.297527604
	 0.118759847,	 0.285299654
	 0.128561258,	 0.270706553
	 0.134269964,	 0.254873894
	 0.13568636,	 0.23918939
	 0.133203628,	 0.224980247
	 0.127679073,	 0.213243734
END
BEGIN
	 0.782640458,	-0.517748872
	 0.779640795,	-0.519092438
	 0.776614697,	-0.520396586
	 0.773558644,	-0.521658748
	 0.770468656,	-0.522875095
	 0.767340516,	-0.524040105
	 0.764169766,	-0.525146089
	 0.760952785,	-0.526182544
	 0.757687383,	-0.527135617
	 0.754374364,	-0.527987664
	 0.751019639,	-0.528717344
	 0.747636913,	-0.529300673
	 0.744250558,	-0.529713763
	 0.740897649,	-0.529937766
	 0.737627421,	-0.529965956
	 0.734496249,	-0.529811349
	 0.731557351,	-0.529511419
	 0.728847605,	-0.529125985
	 0.726376571,	-0.528728727
	 0.7241227,	-0.528389453
	 0.722040296,	-0.528160303
END
BEGIN
	-0.0728601813,	 0.247084426
	-0.0657666163,	 0.256007422
	-0.0579625422,	 0.264788848
	-0.0493727221,	 0.273367579
	-0.0399135984,	 0.281658788
	-0.029491597,	 0.289548718
	-0.0180259561,	 0.296873414
	-0.00543476306,	 0.303424831
	 0.00833128701,	 0.30892781
	 0.0232647631,	 0.313034795
	 0.0392613807,	 0.315326754
	 0.0560684923,	 0.315332951
	 0.0732297634,	 0.312582243
	 0.0900453927,	 0.306696948
	 0.105580675,	 0.297527604
	 0.118759847,	 0.285299654
	 0.128561258,	 0.270706553
	 0.134269964,	 0.254873894
	 0.13568636,	 0.23918939
	 0.133203628,	 0.224980247
	 0.127679073,	 0.213243734
END
BEGIN
	-0.0164471619,	-0.0419806916
	-0.0189449009,	-0.0401518159
	-0.0213084722,	-0.0381681224
	-0.0235140074,	-0.0360286408
	-0.0255326743,	-0.0337349294
	-0.0273295312,	-0.0312915752
	-0.0288640246,	-0.0287134357
	-0.0300883816,	-0.0260220826
	-0.0309495979,	-0.0232550524
	-0.0313923966,	-0.0204704376
	-0.0313657765,	-0.0177530745
	-0.0308343595,	-0.0152195175
	-0.0297953378,	-0.0130185914
	-0.0282996626,	-0.0113226811
	-0.026471956,	-0.0103048241
	-0.0245187341,	-0.0101004893
	-0.0227119981,	-0.0107617311
	-0.0213432541,	-0.0122228405
	-0.0206626028,	-0.0142954825
	-0.0208163971,	-0.0167069178
	-0.0218247869,	-0.0191637078
END
BEGIN
	-0.593802006,	-0.284515547
	-0.595338984,	-0.279377873
	-0.596794985,	-0.274152439
	-0.598166471,	-0.26882271
	-0.599446073,	-0.263367511
	-0.600620319,	-0.25775971
	-0.601665748,	-0.251967744
	-0.602543971,	-0.245952789
	-0.603193279,	-0.239673455
	-0.603518295,	-0.233093044
	-0.603377904,	-0.226196391
	-0.602578376,	-0.219022472
	-0.600887359,	-0.211716318
	-0.598096321,	-0.204587856
	-0.594152975,	-0.198127281
	-0.589321751,	-0.192891739
	-0.584221108,	-0.189240794
	-0.579603619,	-0.187095015
	-0.576009433,	-0.185962412
	-0.57357575,	-0.18522028
	-0.572127099,	-0.184383822
END
BEGIN
	-0.0193765643,	 0.188123999
	-0.0161281022,	 0.193332088
	-0.0126273615,	 0.19880419
	-0.00880626756,	 0.204585357
	-0.00457107467,	 0.210723265
	 0.000208144718,	 0.217267471
	 0.00570721343,	 0.224246517
	 0.0121676934,	 0.231670891
	 0.0199111607,	 0.239488051
	 0.029350303,	 0.247530479
	 0.0409752631,	 0.255427726
	 0.055278184,	 0.262484901
	 0.0725556743,	 0.26756343
	 0.0925403254,	 0.269084312
	 0.113944749,	 0.265374086
	 0.134301167,	 0.255492771
	 0.150631543,	 0.240164098
	 0.160845816,	 0.221869804
	 0.164740854,	 0.203741263
	 0.163748979,	 0.18811502
	 0.159861145,	 0.175970895
END
BEGIN
	 0.393974372,	-0.486926326
	 0.391122349,	-0.4825948
	 0.388342719,	-0.478083557
	 0.385645184,	-0.473361214
	 0.383046972,	-0.468388411
	 0.380576858,	-0.46311545
	 0.378283213,	-0.457485652
	 0.376241609,	-0.45143116
	 0.374570679,	-0.444882151
	 0.373450242,	-0.437780712
	 0.373141299,	-0.430113401
	 0.373995103,	-0.421971474
	 0.37642199,	-0.413644172
	 0.380770899,	-0.405719494
	 0.38708578,	-0.399097915
	 0.394824718,	-0.394767978
	 0.402820347,	-0.393319083
	 0.409707659,	-0.394524317
	 0.414554789,	-0.397425364
	 0.417180018,	-0.400869326
	 0.417957861,	-0.403989186
END
BEGIN
	-0.0193765643,	 0.188123999
	-0.0161281022,	 0.193332088
	-0.0126273615,	 0.19880419
	-0.00880626756,	 0.204585357
	-0.00457107467,	 0.210723265
	 0.000208144718,	 0.217267471
	 0.00570721343,	 0.224246517
	 0.0121676934,	 0.231670891
	 0.0199111607,	 0.239488051
	 0.029350303,	 0.247530479
	 0.0409752631,	 0.255427726
	 0.055278184,	 0.262484901
	 0.0725556743,	 0.26756343
	 0.0925403254,	 0.269084312
	 0.113944749,	 0.265374086
	 0.134301167,	 0.255492771
	 0.150631543,	 0.240164098
	 0.160845816,	 0.221869804
	 0.164740854,	 0.203741263
	 0.163748979,	 0.18811502
	 0.159861145,	 0.175970895
END
BEGIN
	-0.803991338,	 0.420665525
	-0.790483735,	 0.429949253
	-0.775354319,	 0.439583143
	-0.758250008,	 0.449501114
	-0.738730636,	 0.459568639
	-0.716238862,	 0.469548827
	-0.690137001,	 0.479003662
	-0.659638506,	 0.487243259
	-0.623896127,	 0.493144643
	-0.582122414,	 0.494957443
	-0.53389319,	 0.49007218
	-0.479742632,	 0.474867987
	-0.422129564,	 0.444930125
	-0.366569628,	 0.396155322
	-0.322019827,	 0.327178677
	-0.298915112,	 0.24241577
	-0.304329306,	 0.152953799
	-0.337364604,	 0.0726909614
	-0.389330951,	 0.0119258995
	-0.448842799,	-0.0263655501
	-0.50681662,	-0.0450710656
END
BEGIN
	-0.0461095912,	 0.205615522
	-0.0430648228,	 0.214338042
	-0.039533112,	 0.223592561
	-0.0353831083,	 0.233453673
	-0.0304363148,	 0.243997911
	-0.0244482689,	 0.255300836
	-0.0170920662,	 0.267395802
	-0.00792361506,	 0.280274775
	 0.00364077575,	 0.293806244
	 0.0183387437,	 0.307638724
	 0.0370274213,	 0.321041557
	 0.060532383,	 0.332691071
	 0.0892739063,	 0.340474145
	 0.122594063,	 0.341534092
	 0.157961238,	 0.332952079
	 0.190766721,	 0.313277082
	 0.215649354,	 0.284152718
	 0.229059603,	 0.250338431
	 0.230968939,	 0.217576192
	 0.224248576,	 0.189978112
	 0.212643126,	 0.169117178
END
BEGIN
	 0.393974372,	-0.486926326
	 0.391122349,	-0.4825948
	 0.388342719,	-0.478083557
	 0.385645184,	-0.473361214
	 0.383046972,	-0.468388411
	 0.380576858,	-0.46311545
	 0.378283213,	-0.457485652
	 0.376241609,	-0.45143116
	 0.374570679,	-0.444882151
	 0.373450242,	-0.437780712
	 0.373141299,	-0.430113401
	 0.373995103,	-0.421971474
	 0.37642199,	-0.413644172
	 0.380770899,	-0.405719494
	 0.38708578,	-0.399097915
	 0.394824718,	-0.394767978
	 0.402820347,	-0.393319083
	 0.409707659,	-0.394524317
	 0.414554789,	-0.397425364
	 0.417180018,	-0.400869326
	 0.417957861,	-0.403989186
END
BEGIN
	-0.0461095912,	 0.205615522
	-0.0430648228,	 0.214338042
	-0.039533112,	 0.223592561
	-0.0353831083,	 0.233453673
	-0.0304363148,	 0.243997911
	-0.0244482689,	 0.255300836
	-0.0170920662,	 0.267395802
	-0.00792361506,	 0.280274775
	 0.00364077575,	 0.293806244
	 0.0183387437,	 0.307638724
	 0.0370274213,	 0.321041557
	 0.060532383,	 0.332691071
	 0.0892739063,	 0.340474145
	 0.122594063,	 0.341534092
	 0.157961238,	 0.332952079
	 0.190766721,	 0.313277082
	 0.215649354,	 0.284152718
	 0.229059603,	 0.250338431
	 0.230968939,	 0.217576192
	 0.224248576,	 0.189978112
	 0.212643126,	 0.169117178
END
BEGIN
	-0.581283111,	-0.369532932
	-0.585492007,	-0.363454559
	-0.589622725,	-0.357027996
	-0.593652709,	-0.350195071
	-0.597544741,	-0.342883938
	-0.601239671,	-0.335005257
	-0.604640948,	-0.326459486
	-0.607601763,	-0.317129056
	-0.609896169,	-0.306897495
	-0.611187695,	-0.29567723
	-0.610996343,	-0.283470673
	-0.60868856,	-0.270481377
	-0.603544255,	-0.257281081
	-0.594987881,	-0.244980769
	-0.583034903,	-0.235229325
	-0.568780651,	-0.229773173
	-0.55441995,	-0.229562005
	-0.54242063,	-0.234033068
	-0.534379128,	-0.241333268
	-0.530500695,	-0.24933616
	-0.530005433,	-0.25649793
END
BEGIN
	 0.128208601,	 58.3230117
	 0.128946545,	 58.589945
	 0.129682801,	 58.856971
	 0.130417354,	 59.1240908
	 0.131150187,	 59.3913052
	 0.131884681,	 59.6586122
	 0.132626945,	 59.9260079
	 0.133373413,	 60.193495
	 0.134119361,	 60.4610683
	 0.134866759,	 60.7287312
	 0.135615604,	 60.9964843
	 0.136365897,	 61.2643286
	 0.137117635,	 61.5322648
	 0.137870818,	 61.8002938
	 0.138625444,	 62.0684165
	 0.139381514,	 62.3366338
	 0.140139025,	 62.6049465
	 0.140897978,	 62.8733556
	 0.141658371,	 63.1418619
	 0.142420204,	 63.4104666
	 0.143183475,	 63.6791704
END
BEGIN
	 0.128208601,	 58.3230117
	 0.128946545,	 58.589945
	 0.129682801,	 58.856971
	 0.130417354,	 59.1240908
	 0.131150187,	 59.3913052
	 0.131884681,	 59.6586122
	 0.132626945,	 59.9260079
	 0.133373413,	 60.193495
	 0.134119361,	 60.4610683
	 0.134866759,	 60.7287312
	 0.135615604,	 60.9964843
	 0.136365897,	 61.2643286
	 0.137117635,	 61.5322648
	 0.137870818,	 61.8002938
	 0.138625444,	 62.0684165
	 0.139381514,	 62.3366338
	 0.140139025,	 62.6049465
	 0.140897978,	 62.8733556
	 0.141658371,	 63.1418619
	 0.142420204,	 63.4104666
	 0.143183475,	 63.6791704
END
BEGIN
	 0.128208601,	 58.3230117
	 0.128946545,	 58.589945
	 0.129682801,	 58.856971
	 0.130417354,	 59.1240908
	 0.131150187,	 59.3913052
	 0.131884681,	 59.6586122
	 0.132626945,	 59.9260079
	 0.133373413,	 60.193495
	 0.134119361,	 60.4610683
	 0.134866759,	 60.7287312
	 0.135615604,	 60.9964843
	 0.136365897,	 61.2643286
	 0.137117635,	 61.5322648
	 0.137870818,	 61.8002938
	 0.138625444,	 62.0684165
	 0.139381514,	 62.3366338
	 0.140139025,	 62.6049465
	 0.140897978,	 62.8733556
	 0.141658371,	 63.1418619
	 0.142420204,	 63.4104666
	 0.143183475,	 63.6791704
END
BEGIN
	 180.7422833 ,	 0.23498708030000001 
	 180.46163290000001 ,	 0.23508551380000001 
	 180.18224739999999 ,	 0.23519258679999999 
	 179.90412219999999 ,	 0.23530819080000001 
	 179.6272524 ,	 0.23543221980000001 
	 179.35162840000001 ,	 0.23555432940000001 
	 179.07723619999999 ,	 0.23565624190000001 
	 178.80407199999999 ,	 0.23574893359999999 
	 178.5320797 ,	 0.23584647449999999 
	 178.26127640000001 ,	 0.2359430176 
	 177.99165780000001 ,	 0.23603858359999999 
	 177.72321959999999 ,	 0.2361331931 
	 177.45595739999999 ,	 0.2362268666 
	 177.1898669 ,	 0.2363196243 
