CITIFILE A.01.01
#Momentum: B.12.00.024 (*) built: Jan 14 2016 
#Momentum Date and Time: Fri Oct 27 15:59:03 2023

NAME PortSet1/TwoP0_Dsolver_data/first_odd_mode_is_1/most_even_mode_is_1/PMLG4/LS0


CONSTANT NBR_OF_PORTS 3

VAR freq MAG 5

DATA GAMMA_1[1] RI
DATA Z0_1[1,1] RI
DATA LAMBADAI_1[1,1] RI
DATA Zcir_1[1,1] RI
DATA Ycir_1[1,1] RI

VAR_LIST_BEGIN
	 2300000000
	 2323000000
	 2346000000
	 2369000000
	 2500000000
VAR_LIST_END

BEGIN
	 0.1282086008,	 58.32301169
	 0.1299033466,	 58.93709708
	 0.1315890559,	 59.55167958
	 0.1332988974,	 60.16674258
	 0.1431834753,	 63.67917036
END
BEGIN
	 180.74228332942388 ,	 0.23498708027366744 
	 180.09867769276281 ,	 0.23522637702889038 
	 179.46173133095874 ,	 0.2355106377547968 
	 178.83133673930652 ,	 0.23573912375321673 
	 175.35969029757251 ,	 0.23694493969435645 
END
BEGIN
	 0.1282086008,	 58.32301169
	 0.1299033466,	 58.93709708
	 0.1315890559,	 59.55167958
	 0.1332988974,	 60.16674258
	 0.1431834753,	 63.67917036
END
BEGIN
	 0.02513086775,	 1.936255282e-009
	 0.02530154716,	 1.930371111e-009
	 0.02545625893,	 1.92454745e-009
	 0.02562672322,	 1.918782875e-009
	 0.02659767727,	 1.887026421e-009
END
BEGIN
	 0.425281203,	 8.412036063e-009
	 0.4327527229,	 8.446519238e-009
	 0.4402898938,	 8.480918817e-009
	 0.4478925873,	 8.515233323e-009
	 0.4924528575,	 8.709159921e-009
END
CITIFILE A.01.01
NAME PortSet2/TwoP0_Dsolver_data/first_odd_mode_is_1/most_even_mode_is_1/PMLG4/LS0

VAR freq MAG 5

DATA GAMMA_1[1] RI
DATA Z0_1[1,1] RI
DATA LAMBADAI_1[1,1] RI
DATA Zcir_1[1,1] RI
DATA Ycir_1[1,1] RI

VAR_LIST_BEGIN
	 2300000000
	 2323000000
	 2346000000
	 2369000000
	 2500000000
VAR_LIST_END

BEGIN
	 0.1282086008,	 58.32301169
	 0.1299033466,	 58.93709708
	 0.1315890559,	 59.55167958
	 0.1332988974,	 60.16674258
	 0.1431834753,	 63.67917036
END
BEGIN
	 180.74228332942388 ,	 0.23498708027366744 
	 180.09867769276281 ,	 0.23522637702889038 
	 179.46173133095874 ,	 0.2355106377547968 
	 178.83133673930652 ,	 0.23573912375321673 
	 175.35969029757251 ,	 0.23694493969435645 
END
BEGIN
	 0.1282086008,	 58.32301169
	 0.1299033466,	 58.93709708
	 0.1315890559,	 59.55167958
	 0.1332988974,	 60.16674258
	 0.1431834753,	 63.67917036
END
BEGIN
	 0.02513086775,	 1.936255282e-009
	 0.02530154716,	 1.930371111e-009
	 0.02545625893,	 1.92454745e-009
	 0.02562672322,	 1.918782875e-009
	 0.02659767727,	 1.887026421e-009
END
BEGIN
	 0.425281203,	 8.412036063e-009
	 0.4327527229,	 8.446519238e-009
	 0.4402898938,	 8.480918817e-009
	 0.4478925873,	 8.515233323e-009
	 0.4924528575,	 8.709159921e-009
END
CITIFILE A.01.01
NAME PortSet3/TwoP0_Dsolver_data/first_odd_mode_is_1/most_even_mode_is_1/PMLG4/LS0

VAR freq MAG 5

DATA GAMMA_1[1] RI
DATA Z0_1[1,1] RI
DATA LAMBADAI_1[1,1] RI
DATA Zcir_1[1,1] RI
DATA Ycir_1[1,1] RI

VAR_LIST_BEGIN
	 2300000000
	 2323000000
	 2346000000
	 2369000000
	 2500000000
VAR_LIST_END

BEGIN
	 0.1282086008,	 58.32301169
	 0.1299033466,	 58.93709708
	 0.1315890559,	 59.55167958
	 0.1332988974,	 60.16674258
	 0.1431834753,	 63.67917036
END
BEGIN
	 180.74228332942388 ,	 0.23498708027366744 
	 180.09867769276281 ,	 0.23522637702889038 
	 179.46173133095874 ,	 0.2355106377547968 
	 178.83133673930652 ,	 0.23573912375321673 
	 175.35969029757251 ,	 0.23694493969435645 
END
BEGIN
	 0.1282086008,	 58.32301169
	 0.1299033466,	 58.93709708
	 0.1315890559,	 59.55167958
	 0.1332988974,	 60.16674258
	 0.1431834753,	 63.67917036
END
BEGIN
	 0.02513086775,	 1.936255282e-009
	 0.02530154716,	 1.930371111e-009
	 0.02545625893,	 1.92454745e-009
	 0.02562672322,	 1.918782875e-009
	 0.02659767727,	 1.887026421e-009
END
BEGIN
	 0.425281203,	 8.412036063e-009
	 0.4327527229,	 8.446519238e-009
	 0.4402898938,	 8.480918817e-009
	 0.4478925873,	 8.515233323e-009
	 0.4924528575,	 8.709159921e-009
END
