CITIFILE A.01.01
#Momentum: B.12.00.024 (*) built: Jan 14 2016 
#Momentum Date and Time: Mon Nov 20 20:18:47 2023

NAME Momentum.SP

#  mode: MW    project: proj

#eesof Port[1] P1
#eesof Port[2] P2
#eesof Port[3] P3
#eesof Port[4] P4
#eesof Port[5] P5
#eesof Port[6] P6

CONSTANT NBR_OF_PORTS 6

CONSTANT NORMALIZATION 1

VAR freq MAG 21

DATA S[1,1] RI
DATA S[1,2] RI
DATA S[1,3] RI
DATA S[1,4] RI
DATA S[1,5] RI
DATA S[1,6] RI
DATA S[2,1] RI
DATA S[2,2] RI
DATA S[2,3] RI
DATA S[2,4] RI
DATA S[2,5] RI
DATA S[2,6] RI
DATA S[3,1] RI
DATA S[3,2] RI
DATA S[3,3] RI
DATA S[3,4] RI
DATA S[3,5] RI
DATA S[3,6] RI
DATA S[4,1] RI
DATA S[4,2] RI
DATA S[4,3] RI
DATA S[4,4] RI
DATA S[4,5] RI
DATA S[4,6] RI
DATA S[5,1] RI
DATA S[5,2] RI
DATA S[5,3] RI
DATA S[5,4] RI
DATA S[5,5] RI
DATA S[5,6] RI
DATA S[6,1] RI
DATA S[6,2] RI
DATA S[6,3] RI
DATA S[6,4] RI
DATA S[6,5] RI
DATA S[6,6] RI
DATA PORTZ[1] RI
DATA PORTZ[2] RI
DATA PORTZ[3] RI
DATA PORTZ[4] RI
DATA PORTZ[5] RI
DATA PORTZ[6] RI

VAR_LIST_BEGIN
	 2400000000
	 2405000000
	 2410000000
	 2415000000
	 2420000000
	 2425000000
	 2430000000
	 2435000000
	 2440000000
	 2445000000
	 2450000000
	 2455000000
	 2460000000
	 2465000000
	 2470000000
	 2475000000
	 2480000000
	 2485000000
	 2490000000
	 2495000000
	 2500000000
VAR_LIST_END

BEGIN
	 0.0792675402,	 0.0246864502
	 0.0792585763,	 0.0245820985
	 0.0792496558,	 0.0244780615
	 0.0792407785,	 0.0243743371
	 0.0792319441,	 0.0242709232
	 0.0792231525,	 0.0241678176
	 0.0792144033,	 0.0240650182
	 0.0792056964,	 0.0239625231
	 0.0791970317,	 0.0238603302
	 0.0791884088,	 0.0237584374
	 0.0791798275,	 0.0236568426
	 0.0791712878,	 0.023555544
	 0.0791627893,	 0.0234545394
	 0.0791543319,	 0.023353827
	 0.0791459153,	 0.0232534047
	 0.0791375395,	 0.0231532706
	 0.0791292041,	 0.0230534228
	 0.079120909,	 0.0229538592
	 0.0791126539,	 0.0228545781
	 0.0791044388,	 0.0227555775
	 0.0790962634,	 0.0226568555
END
BEGIN
	 0.676461951,	-0.721119894
	 0.675354467,	-0.722143259
	 0.674245191,	-0.723165135
	 0.673134127,	-0.724185516
	 0.672021278,	-0.725204397
	 0.670906647,	-0.726221774
	 0.669790238,	-0.727237642
	 0.668672053,	-0.728251996
	 0.667552097,	-0.729264832
	 0.666430372,	-0.730276145
	 0.665306882,	-0.73128593
	 0.66418163,	-0.732294182
	 0.663054619,	-0.733300898
	 0.661925853,	-0.734306072
	 0.660795335,	-0.735309699
	 0.659663068,	-0.736311776
	 0.658529056,	-0.737312298
	 0.657393301,	-0.738311259
	 0.656255808,	-0.739308657
	 0.655116579,	-0.740304485
	 0.653975618,	-0.74129874
END
BEGIN
	 0.00855575506,	-0.00305632302
	 0.00852572245,	-0.00307778405
	 0.00849569975,	-0.00309910256
	 0.00846568708,	-0.00312027897
	 0.00843568456,	-0.0031413137
	 0.00840569231,	-0.00316220716
	 0.00837571047,	-0.00318295974
	 0.00834573915,	-0.00320357186
	 0.00831577849,	-0.00322404392
	 0.00828582861,	-0.00324437631
	 0.00825588965,	-0.00326456945
	 0.00822596173,	-0.00328462372
	 0.00819604499,	-0.00330453951
	 0.00816613955,	-0.00332431723
	 0.00813624556,	-0.00334395725
	 0.00810636315,	-0.00336345997
	 0.00807649244,	-0.00338282578
	 0.00804663359,	-0.00340205504
	 0.00801678672,	-0.00342114817
	 0.00798695197,	-0.00344010551
	 0.00795712947,	-0.00345892747
END
BEGIN
	-0.00725344762,	-0.00586089229
	-0.0072492156,	-0.00584030259
	-0.00724500138,	-0.00581978595
	-0.00724080484,	-0.00579934191
	-0.00723662587,	-0.00577897001
	-0.00723246437,	-0.00575866982
	-0.00722832022,	-0.00573844088
	-0.00722419332,	-0.00571828276
	-0.00722008356,	-0.00569819501
	-0.00721599085,	-0.00567817721
	-0.00721191507,	-0.00565822891
	-0.00720785612,	-0.0056383497
	-0.0072038139,	-0.00561853914
	-0.00719978831,	-0.00559879682
	-0.00719577926,	-0.00557912231
	-0.00719178663,	-0.00555951519
	-0.00718781035,	-0.00553997507
	-0.00718385029,	-0.00552050151
	-0.00717990639,	-0.00550109413
	-0.00717597853,	-0.0054817525
	-0.00717206662,	-0.00546247624
END
BEGIN
	 0.00953428879,	-0.0126463628
	 0.0095123779,	-0.0126633692
	 0.00949042892,	-0.0126803433
	 0.00946844194,	-0.0126972851
	 0.00944641702,	-0.0127141944
	 0.00942435421,	-0.0127310711
	 0.00940225361,	-0.0127479151
	 0.00938011525,	-0.0127647262
	 0.00935793922,	-0.0127815043
	 0.00933572551,	-0.0127982494
	 0.00931347443,	-0.0128149614
	 0.00929118578,	-0.01283164
	 0.00926885972,	-0.0128482851
	 0.00924649633,	-0.0128648968
	 0.00922409564,	-0.0128814747
	 0.00920165778,	-0.012898019
	 0.00917918277,	-0.0129145293
	 0.00915667059,	-0.0129310056
	 0.00913412158,	-0.0129474478
	 0.00911153547,	-0.0129638558
	 0.00908891268,	-0.0129802295
END
BEGIN
	 0.00046114583,	-0.0154815177
	 0.000414682809,	-0.0154822219
	 0.000368212965,	-0.0154827859
	 0.000321736742,	-0.0154832097
	 0.000275254608,	-0.0154834932
	 0.000228767031,	-0.0154836365
	 0.000182274475,	-0.0154836395
	 0.000135777431,	-0.015483502
	 8.92763227e-005,	-0.0154832241
	 4.27717325e-005,	-0.0154828058
	-3.73618019e-006,	-0.0154822469
	-5.02466199e-005,	-0.0154815475
	-9.67592359e-005,	-0.0154807075
	-0.000143273563,	-0.0154797269
	-0.000189789115,	-0.0154786056
	-0.000236305487,	-0.0154773437
	-0.000282822149,	-0.015475941
	-0.000329338539,	-0.0154743976
	-0.000375854524,	-0.0154727133
	-0.000422369234,	-0.0154708883
	-0.000468882599,	-0.0154689225
END
BEGIN
	 0.676461951,	-0.721119894
	 0.675354467,	-0.722143259
	 0.674245191,	-0.723165135
	 0.673134127,	-0.724185516
	 0.672021278,	-0.725204397
	 0.670906647,	-0.726221774
	 0.669790238,	-0.727237642
	 0.668672053,	-0.728251996
	 0.667552097,	-0.729264832
	 0.666430372,	-0.730276145
	 0.665306882,	-0.73128593
	 0.66418163,	-0.732294182
	 0.663054619,	-0.733300898
	 0.661925853,	-0.734306072
	 0.660795335,	-0.735309699
	 0.659663068,	-0.736311776
	 0.658529056,	-0.737312298
	 0.657393301,	-0.738311259
	 0.656255808,	-0.739308657
	 0.655116579,	-0.740304485
	 0.653975618,	-0.74129874
END
BEGIN
	 0.0314779309,	 0.074682661
	 0.0316046283,	 0.0745871577
	 0.0317313808,	 0.0744916022
	 0.0318581869,	 0.0743959924
	 0.0319850451,	 0.0743003261
	 0.0321119539,	 0.0742046011
	 0.0322389115,	 0.0741088153
	 0.0323659166,	 0.0740129666
	 0.0324929675,	 0.073917053
	 0.0326200628,	 0.0738210724
	 0.0327472009,	 0.0737250228
	 0.0328743802,	 0.0736289021
	 0.0330015992,	 0.0735327084
	 0.0331288565,	 0.0734364397
	 0.0332561504,	 0.073340094
	 0.0333834795,	 0.0732436695
	 0.0335108423,	 0.0731471641
	 0.0336382371,	 0.073050576
	 0.0337656626,	 0.0729539034
	 0.0338931172,	 0.0728571444
	 0.0340205994,	 0.072760297
END
BEGIN
	-0.00739509954,	-0.00572141247
	-0.00739067088,	-0.00570056723
	-0.00738625927,	-0.00567979516
	-0.00738186459,	-0.00565909581
	-0.00737748674,	-0.00563846873
	-0.0073731256,	-0.00561791348
	-0.00736878107,	-0.00559742962
	-0.00736445304,	-0.0055770167
	-0.0073601414,	-0.00555667429
	-0.00735584605,	-0.00553640197
	-0.00735156688,	-0.0055161993
	-0.0073473038,	-0.00549606585
	-0.0073430567,	-0.00547600121
	-0.00733882547,	-0.00545600496
	-0.00733461003,	-0.00543607668
	-0.00733041027,	-0.00541621595
	-0.0073262261,	-0.00539642238
	-0.00732205741,	-0.00537669554
	-0.00731790411,	-0.00535703505
	-0.00731376612,	-0.00533744049
	-0.00730964333,	-0.00531791146
END
BEGIN
	 -0.00083018837 ,	 0.00843302795 
	 -0.00083053814 ,	 0.00841120856 
	 -0.000830879657 ,	 0.00838945478 
	 -0.000831213107 ,	 0.00836776618 
	 -0.000831538679 ,	 0.00834614232 
	 -0.000831856557 ,	 0.00832458276 
	 -0.000832166927 ,	 0.00830308708 
	 -0.000832469971 ,	 0.00828165484 
	 -0.00083276587 ,	 0.00826028562 
	 -0.000833054805 ,	 0.00823897901 
	 -0.000833336951 ,	 0.00821773459 
	 -0.00083361249 ,	 0.00819655195 
	 -0.000833881597 ,	 0.00817543068 
	 -0.000834144445 ,	 0.00815437038 
	 -0.000834401209 ,	 0.00813337064 
	 -0.000834652059 ,	 0.00811243107 
	 -0.000834897168 ,	 0.00809155128 
	 -0.000835136706 ,	 0.00807073088 
	 -0.000835370837 ,	 0.00804996948 
	 -0.000835599732 ,	 0.00802926669 
	 -0.000835823554 ,	 0.00800862215 
END
BEGIN
	-0.0146669624,	-0.00381104822
	-0.0146623064,	-0.00382328252
	-0.0146576445,	-0.00383551491
	-0.014652977,	-0.00384774545
	-0.0146483038,	-0.00385997419
	-0.014643625,	-0.00387220114
	-0.0146389405,	-0.00388442635
	-0.0146342505,	-0.00389664985
	-0.014629555,	-0.00390887168
	-0.0146248538,	-0.00392109182
	-0.0146201474,	-0.00393331048
	-0.0146154355,	-0.00394552751
	-0.0146107181,	-0.00395774301
	-0.0146059954,	-0.00396995701
	-0.0146012673,	-0.00398216954
	-0.0145965339,	-0.00399438064
	-0.0145917952,	-0.00400659034
	-0.0145870512,	-0.00401879861
	-0.0145823022,	-0.00403100565
	-0.0145775478,	-0.00404321127
	-0.0145727885,	-0.00405541574
END
BEGIN
	-0.0138104489,	 0.00523411725
	-0.0138059591,	 0.00523856482
	-0.0138014732,	 0.0052430065
	-0.0137969914,	 0.00524744228
	-0.0137925137,	 0.00525187219
	-0.0137880402,	 0.0052562962
	-0.0137835709,	 0.00526071434
	-0.013779106,	 0.00526512656
	-0.0137746453,	 0.00526953292
	-0.0137701891,	 0.00527393332
	-0.0137657373,	 0.00527832802
	-0.0137612901,	 0.00528271674
	-0.0137568475,	 0.00528709958
	-0.0137524094,	 0.00529147656
	-0.0137479761,	 0.00529584765
	-0.0137435475,	 0.00530021292
	-0.0137391237,	 0.00530457231
	-0.0137347048,	 0.00530892574
	-0.0137302907,	 0.00531327352
	-0.0137258817,	 0.0053176153
	-0.0137214776,	 0.00532195143
END
BEGIN
	 0.00855575506,	-0.00305632302
	 0.00852572245,	-0.00307778405
	 0.00849569975,	-0.00309910256
	 0.00846568708,	-0.00312027897
	 0.00843568456,	-0.0031413137
	 0.00840569231,	-0.00316220716
	 0.00837571047,	-0.00318295974
	 0.00834573915,	-0.00320357186
	 0.00831577849,	-0.00322404392
	 0.00828582861,	-0.00324437631
	 0.00825588965,	-0.00326456945
	 0.00822596173,	-0.00328462372
	 0.00819604499,	-0.00330453951
	 0.00816613955,	-0.00332431723
	 0.00813624556,	-0.00334395725
	 0.00810636315,	-0.00336345997
	 0.00807649244,	-0.00338282578
	 0.00804663359,	-0.00340205504
	 0.00801678672,	-0.00342114817
	 0.00798695197,	-0.00344010551
	 0.00795712947,	-0.00345892747
END
BEGIN
	-0.00739509954,	-0.00572141247
	-0.00739067088,	-0.00570056723
	-0.00738625927,	-0.00567979516
	-0.00738186459,	-0.00565909581
	-0.00737748674,	-0.00563846873
	-0.0073731256,	-0.00561791348
	-0.00736878107,	-0.00559742962
	-0.00736445304,	-0.0055770167
	-0.0073601414,	-0.00555667429
	-0.00735584605,	-0.00553640197
	-0.00735156688,	-0.0055161993
	-0.0073473038,	-0.00549606585
	-0.0073430567,	-0.00547600121
	-0.00733882547,	-0.00545600496
	-0.00733461003,	-0.00543607668
	-0.00733041027,	-0.00541621595
	-0.0073262261,	-0.00539642238
	-0.00732205741,	-0.00537669554
	-0.00731790411,	-0.00535703505
	-0.00731376612,	-0.00533744049
	-0.00730964333,	-0.00531791146
END
BEGIN
	 0.0763363042,	 0.0257189762
	 0.0763452845,	 0.0256244404
	 0.0763542966,	 0.0255301253
	 0.0763633402,	 0.0254360289
	 0.0763724151,	 0.0253421495
	 0.0763815208,	 0.0252484851
	 0.076390657,	 0.0251550339
	 0.0763998234,	 0.0250617941
	 0.0764090196,	 0.0249687638
	 0.0764182453,	 0.0248759413
	 0.0764275002,	 0.0247833248
	 0.0764367839,	 0.0246909124
	 0.0764460961,	 0.0245987024
	 0.0764554364,	 0.0245066931
	 0.0764648047,	 0.0244148827
	 0.0764742004,	 0.0243232695
	 0.0764836233,	 0.0242318518
	 0.076493073,	 0.0241406279
	 0.0765025493,	 0.024049596
	 0.0765120518,	 0.0239587546
	 0.0765215802,	 0.0238681019
END
BEGIN
	 0.662687179,	-0.73341414
	 0.66151599,	-0.734454718
	 0.660342957,	-0.735493605
	 0.659168085,	-0.736530796
	 0.657991375,	-0.737566286
	 0.656812833,	-0.73860007
	 0.655632462,	-0.739632144
	 0.654450264,	-0.740662502
	 0.653266245,	-0.741691141
	 0.652080407,	-0.742718056
	 0.650892755,	-0.743743242
	 0.649703291,	-0.744766695
	 0.648512019,	-0.74578841
	 0.647318943,	-0.746808382
	 0.646124067,	-0.747826608
	 0.644927394,	-0.748843081
	 0.643728928,	-0.749857799
	 0.642528672,	-0.750870757
	 0.64132663,	-0.75188195
	 0.640122806,	-0.752891373
	 0.638917203,	-0.753899023
END
BEGIN
	 0.0114375581,	-0.0161386446
	 0.011407931,	-0.0161600064
	 0.0113782558,	-0.0161813198
	 0.0113485326,	-0.0162025848
	 0.0113187614,	-0.0162238011
	 0.0112889425,	-0.0162449687
	 0.0112590758,	-0.0162660873
	 0.0112291615,	-0.0162871569
	 0.0111991997,	-0.0163081773
	 0.0111691904,	-0.0163291483
	 0.011139134,	-0.0163500699
	 0.0111090303,	-0.0163709418
	 0.0110788794,	-0.016391764
	 0.0110486815,	-0.0164125362
	 0.0110184367,	-0.0164332584
	 0.0109881451,	-0.0164539305
	 0.0109578068,	-0.0164745522
	 0.0109274217,	-0.0164951233
	 0.0108969902,	-0.0165156441
	 0.0108665122,	-0.0165361139
	 0.0108359881,	-0.016556533
END
BEGIN
	 0.000512244781,	-0.0193396279
	 0.000453366863,	-0.0193401691
	 0.000394483577,	-0.0193405303
	 0.000335595491,	-0.0193407115
	 0.000276703202,	-0.0193407127
	 0.000217807306,	-0.0193405338
	 0.000158908394,	-0.0193401748
	 0.000100007092,	-0.0193396357
	 4.11039408e-005,	-0.0193389164
	-1.78003192e-005,	-0.0193380168
	-7.67054774e-005,	-0.019336937
	-0.000135610528,	-0.0193356769
	-0.000194515022,	-0.0193342365
	-0.000253418365,	-0.0193326157
	-0.000312319938,	-0.0193308146
	-0.000371219225,	-0.0193288331
	-0.000430115551,	-0.0193266712
	-0.000489008202,	-0.0193243289
	-0.000547896999,	-0.0193218062
	-0.000606780846,	-0.019319103
	-0.000665659643,	-0.0193162194
END
BEGIN
	-0.00725344762,	-0.00586089229
	-0.0072492156,	-0.00584030259
	-0.00724500138,	-0.00581978595
	-0.00724080484,	-0.00579934191
	-0.00723662587,	-0.00577897001
	-0.00723246437,	-0.00575866982
	-0.00722832022,	-0.00573844088
	-0.00722419332,	-0.00571828276
	-0.00722008356,	-0.00569819501
	-0.00721599085,	-0.00567817721
	-0.00721191507,	-0.00565822891
	-0.00720785612,	-0.0056383497
	-0.0072038139,	-0.00561853914
	-0.00719978831,	-0.00559879682
	-0.00719577926,	-0.00557912231
	-0.00719178663,	-0.00555951519
	-0.00718781035,	-0.00553997507
	-0.00718385029,	-0.00552050151
	-0.00717990639,	-0.00550109413
	-0.00717597853,	-0.0054817525
	-0.00717206662,	-0.00546247624
END
BEGIN
	 -0.00083018837 ,	 0.00843302795 
	 -0.00083053814 ,	 0.00841120856 
	 -0.000830879657 ,	 0.00838945478 
	 -0.000831213107 ,	 0.00836776618 
	 -0.000831538679 ,	 0.00834614232 
	 -0.000831856557 ,	 0.00832458276 
	 -0.000832166927 ,	 0.00830308708 
	 -0.000832469971 ,	 0.00828165484 
	 -0.00083276587 ,	 0.00826028562 
	 -0.000833054805 ,	 0.00823897901 
	 -0.000833336951 ,	 0.00821773459 
	 -0.00083361249 ,	 0.00819655195 
	 -0.000833881597 ,	 0.00817543068 
	 -0.000834144445 ,	 0.00815437038 
	 -0.000834401209 ,	 0.00813337064 
	 -0.000834652059 ,	 0.00811243107 
	 -0.000834897168 ,	 0.00809155128 
	 -0.000835136706 ,	 0.00807073088 
	 -0.000835370837 ,	 0.00804996948 
	 -0.000835599732 ,	 0.00802926669 
	 -0.000835823554 ,	 0.00800862215 
END
BEGIN
	 0.662687179,	-0.73341414
	 0.66151599,	-0.734454718
	 0.660342957,	-0.735493605
	 0.659168085,	-0.736530796
	 0.657991375,	-0.737566286
	 0.656812833,	-0.73860007
	 0.655632462,	-0.739632144
	 0.654450264,	-0.740662502
	 0.653266245,	-0.741691141
	 0.652080407,	-0.742718056
	 0.650892755,	-0.743743242
	 0.649703291,	-0.744766695
	 0.648512019,	-0.74578841
	 0.647318943,	-0.746808382
	 0.646124067,	-0.747826608
	 0.644927394,	-0.748843081
	 0.643728928,	-0.749857799
	 0.642528672,	-0.750870757
	 0.64132663,	-0.75188195
	 0.640122806,	-0.752891373
	 0.638917203,	-0.753899023
END
BEGIN
	 0.0355420905,	 0.0704474479
	 0.0356753767,	 0.0703581199
	 0.0358086885,	 0.0702686653
	 0.0359420241,	 0.0701790821
	 0.036075382,	 0.0700893686
	 0.0362087607,	 0.0699995229
	 0.0363421584,	 0.0699095433
	 0.0364755736,	 0.0698194281
	 0.0366090047,	 0.0697291753
	 0.0367424501,	 0.0696387834
	 0.0368759082,	 0.0695482506
	 0.0370093774,	 0.0694575752
	 0.0371428562,	 0.0693667555
	 0.0372763429,	 0.06927579
	 0.037409836,	 0.0691846769
	 0.0375433338,	 0.0690934146
	 0.0376768349,	 0.0690020016
	 0.0378103377,	 0.0689104362
	 0.0379438405,	 0.0688187168
	 0.0380773418,	 0.0687268421
	 0.0382108401,	 0.0686348103
END
BEGIN
	-0.0182935674,	-0.00471177292
	-0.018287748,	-0.0047264102
	-0.0182819228,	-0.00474104753
	-0.0182760922,	-0.00475568495
	-0.018270256,	-0.0047703225
	-0.0182644144,	-0.0047849602
	-0.0182585674,	-0.00479959811
	-0.0182527149,	-0.00481423623
	-0.0182468572,	-0.00482887463
	-0.018240994,	-0.00484351326
	-0.0182351258,	-0.00485815237
	-0.0182292523,	-0.00487279176
	-0.0182233735,	-0.00488743155
	-0.0182174897,	-0.00490207177
	-0.0182116007,	-0.00491671243
	-0.0182057068,	-0.0049313536
	-0.0181998078,	-0.00494599528
	-0.0181939037,	-0.00496063743
	-0.0181879949,	-0.0049752803
	-0.018182081,	-0.00498992364
	-0.0181761625,	-0.00500456776
END
BEGIN
	-0.0173808,	 0.00611084791
	-0.017375351,	 0.006116125
	-0.0173699089,	 0.00612139342
	-0.0173644736,	 0.00612665319
	-0.0173590454,	 0.00613190435
	-0.0173536241,	 0.00613714688
	-0.01734821,	 0.00614238082
	-0.0173428031,	 0.00614760615
	-0.0173374034,	 0.00615282293
	-0.0173320111,	 0.00615803105
	-0.0173266261,	 0.00616323087
	-0.0173212486,	 0.00616842204
	-0.0173158786,	 0.0061736047
	-0.0173105162,	 0.00617877888
	-0.0173051614,	 0.00618394456
	-0.0172998144,	 0.00618910185
	-0.0172944752,	 0.00619425068
	-0.0172891439,	 0.00619939097
	-0.0172838204,	 0.00620452311
	-0.017278505,	 0.00620964668
	-0.0172731976,	 0.00621476213
END
BEGIN
	 0.00953428879,	-0.0126463628
	 0.0095123779,	-0.0126633692
	 0.00949042892,	-0.0126803433
	 0.00946844194,	-0.0126972851
	 0.00944641702,	-0.0127141944
	 0.00942435421,	-0.0127310711
	 0.00940225361,	-0.0127479151
	 0.00938011525,	-0.0127647262
	 0.00935793922,	-0.0127815043
	 0.00933572551,	-0.0127982494
	 0.00931347443,	-0.0128149614
	 0.00929118578,	-0.01283164
	 0.00926885972,	-0.0128482851
	 0.00924649633,	-0.0128648968
	 0.00922409564,	-0.0128814747
	 0.00920165778,	-0.012898019
	 0.00917918277,	-0.0129145293
	 0.00915667059,	-0.0129310056
	 0.00913412158,	-0.0129474478
	 0.00911153547,	-0.0129638558
	 0.00908891268,	-0.0129802295
END
BEGIN
	-0.0146669624,	-0.00381104822
	-0.0146623064,	-0.00382328252
	-0.0146576445,	-0.00383551491
	-0.014652977,	-0.00384774545
	-0.0146483038,	-0.00385997419
	-0.014643625,	-0.00387220114
	-0.0146389405,	-0.00388442635
	-0.0146342505,	-0.00389664985
	-0.014629555,	-0.00390887168
	-0.0146248538,	-0.00392109182
	-0.0146201474,	-0.00393331048
	-0.0146154355,	-0.00394552751
	-0.0146107181,	-0.00395774301
	-0.0146059954,	-0.00396995701
	-0.0146012673,	-0.00398216954
	-0.0145965339,	-0.00399438064
	-0.0145917952,	-0.00400659034
	-0.0145870512,	-0.00401879861
	-0.0145823022,	-0.00403100565
	-0.0145775478,	-0.00404321127
	-0.0145727885,	-0.00405541574
END
BEGIN
	 0.0114375581,	-0.0161386446
	 0.011407931,	-0.0161600064
	 0.0113782558,	-0.0161813198
	 0.0113485326,	-0.0162025848
	 0.0113187614,	-0.0162238011
	 0.0112889425,	-0.0162449687
	 0.0112590758,	-0.0162660873
	 0.0112291615,	-0.0162871569
	 0.0111991997,	-0.0163081773
	 0.0111691904,	-0.0163291483
	 0.011139134,	-0.0163500699
	 0.0111090303,	-0.0163709418
	 0.0110788794,	-0.016391764
	 0.0110486815,	-0.0164125362
	 0.0110184367,	-0.0164332584
	 0.0109881451,	-0.0164539305
	 0.0109578068,	-0.0164745522
	 0.0109274217,	-0.0164951233
	 0.0108969902,	-0.0165156441
	 0.0108665122,	-0.0165361139
	 0.0108359881,	-0.016556533
END
BEGIN
	-0.0182935674,	-0.00471177292
	-0.018287748,	-0.0047264102
	-0.0182819228,	-0.00474104753
	-0.0182760922,	-0.00475568495
	-0.018270256,	-0.0047703225
	-0.0182644144,	-0.0047849602
	-0.0182585674,	-0.00479959811
	-0.0182527149,	-0.00481423623
	-0.0182468572,	-0.00482887463
	-0.018240994,	-0.00484351326
	-0.0182351258,	-0.00485815237
	-0.0182292523,	-0.00487279176
	-0.0182233735,	-0.00488743155
	-0.0182174897,	-0.00490207177
	-0.0182116007,	-0.00491671243
	-0.0182057068,	-0.0049313536
	-0.0181998078,	-0.00494599528
	-0.0181939037,	-0.00496063743
	-0.0181879949,	-0.0049752803
	-0.018182081,	-0.00498992364
	-0.0181761625,	-0.00500456776
END
BEGIN
	 0.0139957607,	 0.0262792362
	 0.0140468192,	 0.0263170334
	 0.0140979504,	 0.0263547414
	 0.0141491559,	 0.0263923606
	 0.0142004349,	 0.0264298912
	 0.0142517878,	 0.0264673323
	 0.0143032143,	 0.0265046847
	 0.014354713,	 0.0265419469
	 0.0144062862,	 0.0265791202
	 0.0144579275,	 0.0266162004
