CITIFILE A.01.01
#Momentum: B.12.00.024 (*) built: Jan 14 2016 
#Momentum Date and Time: Tue Oct 24 19:44:37 2023

NAME PortSet1/TwoP0_Dsolver_data/first_odd_mode_is_1/most_even_mode_is_1/PMLG4/LS0


CONSTANT NBR_OF_PORTS 1

VAR freq MAG 8

DATA GAMMA_1[1] RI
DATA Z0_1[1,1] RI
DATA LAMBADAI_1[1,1] RI
DATA Zcir_1[1,1] RI
DATA Ycir_1[1,1] RI

VAR_LIST_BEGIN
	 2000000000
	 2020000000
	 2040000000
	 2060000000
	 2232153206
	 2577395588
	 2922637969
	 3000000000
VAR_LIST_END

BEGIN
	 0.03320031482,	 44.38936472
	 0.03373728461,	 44.84559464
	 0.03427651821,	 45.30207898
	 0.0348226411,	 45.75882222
	 0.03972964552,	 49.70110462
	 0.05075172133,	 57.66756978
	 0.06350349099,	 65.71984466
	 0.06661749709,	 67.53663206
END
BEGIN
	 108.74524027173938 ,	 0.065852320202812703 
	 108.18845152211766 ,	 0.065930881193529162 
	 107.63821183317103 ,	 0.066015172124435681 
	 107.09434973440455 ,	 0.066096044205521343 
	 102.66054130145281 ,	 0.066818802787330864 
	 94.91501771452036 ,	 0.068416340660360633 
	 88.385319575726044 ,	 0.070223947779556165 
	 87.058195836262783 ,	 0.070658480720247871 
END
BEGIN
	 0.03320031482,	 44.38936472
	 0.03373728461,	 44.84559464
	 0.03427651821,	 45.30207898
	 0.0348226411,	 45.75882222
	 0.03972964552,	 49.70110462
	 0.05075172133,	 57.66756978
	 0.06350349099,	 65.71984466
	 0.06661749709,	 67.53663206
END
BEGIN
	 0.00182420535850842 ,	 1.01964475971113e-009 
	 0.00184024190840114 ,	 1.01470318891571e-009 
	 0.00185500997180934 ,	 1.00982041187579e-009 
	 0.00187091626021598 ,	 1.00499495864437e-009 
	 0.0020112490908096 ,	 9.65684634162602e-010 
	 0.00231384700554974 ,	 8.97171112236065e-010 
	 0.0026482319860777 ,	 8.39636829065816e-010 
	 0.00272758286976026 ,	 8.27975829083322e-010 
END
BEGIN
	 0.2081407448,	 1.223739787e-008
	 0.2126438659,	 1.230376172e-008
	 0.2172099312,	 1.237006227e-008
	 0.2218424193,	 1.243630743e-008
	 0.2645048594,	 1.300435574e-008
	 0.3664281217,	 1.413402628e-008
	 0.4932372232,	 1.525427325e-008
	 0.5254763484,	 1.550453007e-008
END
