CITIFILE A.01.01
#Momentum: B.12.00.024 (*) built: Jan 14 2016 
#Momentum Date and Time: Fri Jan 06 12:10:19 2023

NAME Momentum.SP

#  mode: MW    project: proj

#eesof Port[1] P1

CONSTANT NBR_OF_PORTS 1

CONSTANT NORMALIZATION 2.043132159

VAR freq MAG 21

DATA S[1,1] RI
DATA PORTZ[1] RI

VAR_LIST_BEGIN
	 2000000000
	 2050000000
	 2100000000
	 2150000000
	 2200000000
	 2250000000
	 2300000000
	 2350000000
	 2400000000
	 2450000000
	 2500000000
	 2550000000
	 2600000000
	 2650000000
	 2700000000
	 2750000000
	 2800000000
	 2850000000
	 2900000000
	 2950000000
	 3000000000
VAR_LIST_END

BEGIN
	-2.02989713,	-0.232178113
	-1.97288228,	-0.0517949192
	-1.9056623,	 0.115433263
	-1.83233124,	 0.279393389
	-1.74970711,	 0.459241072
	-1.62417082,	 0.696040026
	-1.26202002,	 1.00160429
	-0.611428564,	 0.691262041
	-0.776011667,	 0.271557477
	-0.929058018,	 0.26257697
	-0.96836085,	 0.315611145
	-0.959753207,	 0.367131905
	-0.930017564,	 0.409968478
	-0.890063657,	 0.444389857
	-0.845124597,	 0.471592361
	-0.797752055,	 0.492483755
	-0.74950523,	 0.50790433
	-0.701310709,	 0.518463802
	-0.653845261,	 0.524694387
	-0.607619834,	 0.527088693
	-0.56296555,	 0.526077589
END
BEGIN
	 50 ,	 0 
	 50 ,	 0 
	 50 ,	 0 
	 50 ,	 0 
	 50 ,	 0 
	 50 ,	 0 
	 50 ,	 0 
	 50 ,	 0 
	 50 ,	 0 
	 50 ,	 0 
	 50 ,	 0 
	 50 ,	 0 
	 50 ,	 0 
	 50 ,	 0 
	 50 ,	 0 
	 50 ,	 0 
	 50 ,	 0 
	 50 ,	 0 
	 50 ,	 0 
	 50 ,	 0 
	 50 ,	 0 
END
