CITIFILE A.01.01
#Momentum: B.12.00.024 (*) built: Jan 14 2016 
#Momentum Date and Time: Tue Oct 24 19:46:01 2023

NAME Momentum.SP

#  mode: MW    project: proj

#eesof Port[1] P1

CONSTANT NBR_OF_PORTS 1

CONSTANT NORMALIZATION 1

VAR freq MAG 21

DATA S[1,1] RI
DATA S_50[1,1] RI
DATA S_Z0[1,1] RI
DATA GAMMA[1] RI
DATA Z0[1] RI
DATA PORTZ[1] RI

VAR_LIST_BEGIN
	 2000000000
	 2050000000
	 2100000000
	 2150000000
	 2200000000
	 2250000000
	 2300000000
	 2350000000
	 2400000000
	 2450000000
	 2500000000
	 2550000000
	 2600000000
	 2650000000
	 2700000000
	 2750000000
	 2800000000
	 2850000000
	 2900000000
	 2950000000
	 3000000000
VAR_LIST_END

BEGIN
	 0.0235653954,	 0.337321525
	 0.225963179,	 0.143753521
	 0.162371746,	 0.093376164
	 0.152878969,	 0.0955423994
	 0.160979667,	 0.0992195937
	 0.175205588,	 0.100653238
	 0.19177907,	 0.0996833537
	 0.209136446,	 0.0965264878
	 0.226514573,	 0.0914030983
	 0.243489741,	 0.0845021479
	 0.259793557,	 0.0759704758
	 0.27524265,	 0.0659276364
	 0.289700774,	 0.0544754103
	 0.3030398,	 0.0417114295
	 0.315155044,	 0.0277219432
	 0.325943594,	 0.012575107
	 0.33529767,	-0.00361858638
	 0.343115453,	-0.0207881175
	 0.349288066,	-0.0388254241
	 0.353695457,	-0.0576199568
	 0.356233983,	-0.0770595952
END
BEGIN
	 0.0235653954,	 0.337321525
	 0.225963179,	 0.143753521
	 0.162371746,	 0.093376164
	 0.152878969,	 0.0955423994
	 0.160979667,	 0.0992195937
	 0.175205588,	 0.100653238
	 0.19177907,	 0.0996833537
	 0.209136446,	 0.0965264878
	 0.226514573,	 0.0914030983
	 0.243489741,	 0.0845021479
	 0.259793557,	 0.0759704758
	 0.27524265,	 0.0659276364
	 0.289700774,	 0.0544754103
	 0.3030398,	 0.0417114295
	 0.315155044,	 0.0277219432
	 0.325943594,	 0.012575107
	 0.33529767,	-0.00361858638
	 0.343115453,	-0.0207881175
	 0.349288066,	-0.0388254241
	 0.353695457,	-0.0576199568
	 0.356233983,	-0.0770595952
END
BEGIN
	-0.386023992,	 0.292203192
	-0.15933362,	 0.14795933
	-0.212075815,	 0.0920604266
	-0.21553904,	 0.0937675909
	-0.201999727,	 0.0981773806
	-0.182212216,	 0.100847008
	-0.159736612,	 0.101277926
	-0.136115896,	 0.0994761052
	-0.112148469,	 0.0955197193
	-0.0883248322,	 0.0894980523
	-0.0649956009,	 0.0814879732
	-0.0424343798,	 0.0715630229
	-0.0208417894,	 0.0597995896
	-0.000422392049,	 0.0462880274
	 0.0185951826,	 0.0311248398
	 0.036018126,	 0.0144032758
	 0.0516533095,	-0.00372056419
	 0.0653230706,	-0.0231199039
	 0.0768526717,	-0.0436133358
	 0.0860965735,	-0.0650044035
	 0.0929218183,	-0.0870861977
END
BEGIN
	 0.0332003148,	 44.3893647
	 0.0345487195,	 45.5304168
	 0.0359301245,	 46.6729483
	 0.0373425897,	 47.8170209
	 0.0387857017,	 48.9629929
	 0.0402617861,	 50.1104831
	 0.0417752328,	 51.2583961
	 0.043321441,	 52.4080106
	 0.0448997978,	 53.5596588
	 0.0465097662,	 54.7136976
	 0.0481508828,	 55.8705086
	 0.0498227569,	 57.0304972
	 0.0515361522,	 58.1911514
	 0.053297111,	 59.350675
	 0.0550931496,	 60.5123499
	 0.0569237182,	 61.6764935
	 0.0587883344,	 62.8434427
	 0.0606865819,	 64.0135528
	 0.062618109,	 65.1871982
	 0.0645946087,	 66.3617257
	 0.0666174971,	 67.5366321
END
BEGIN
	 108.74524030000001 ,	 0.065852320249999999 
	 107.3654871 ,	 0.066056037489999997 
	 106.02493579999999 ,	 0.066260652700000006 
	 104.72194450000001 ,	 0.066470194450000006 
	 103.4557291 ,	 0.066682070590000003 
	 102.223648 ,	 0.066899693610000005 
	 101.02161959999999 ,	 0.067129306210000003 
	 99.851467790000001 ,	 0.067361738539999994 
	 98.712554350000005 ,	 0.06759531631 
	 97.604271699999998 ,	 0.067828719819999994 
	 96.526041030000002 ,	 0.068060933079999997 
	 95.477310439999997 ,	 0.068291200129999993 
	 94.452019449999995 ,	 0.068534743290000005 
	 93.446120089999994 ,	 0.06879810703 
	 92.464959320000006 ,	 0.069062338740000007 
	 91.508096440000003 ,	 0.069326269250000003 
	 90.575109780000005 ,	 0.069588967789999998 
	 89.665595539999998 ,	 0.069849710960000005 
	 88.779166700000005 ,	 0.070107955759999993 
	 87.910481079999997 ,	 0.070377469390000003 
	 87.058195830000003 ,	 0.070658480709999999 
END
BEGIN
	 50 ,	 0 
	 50 ,	 0 
	 50 ,	 0 
	 50 ,	 0 
	 50 ,	 0 
	 50 ,	 0 
	 50 ,	 0 
	 50 ,	 0 
	 50 ,	 0 
	 50 ,	 0 
	 50 ,	 0 
	 50 ,	 0 
	 50 ,	 0 
	 50 ,	 0 
	 50 ,	 0 
	 50 ,	 0 
	 50 ,	 0 
	 50 ,	 0 
	 50 ,	 0 
	 50 ,	 0 
	 50 ,	 0 
END
