CITIFILE A.01.01
#Momentum: B.12.00.024 (*) built: Jan 14 2016 
#Momentum Date and Time: Thu Nov 02 21:10:14 2023

NAME Momentum.SP

#  mode: MW    project: proj

#eesof Port[1] P1
#eesof Port[2] P2
#eesof Port[3] P3

CONSTANT NBR_OF_PORTS 3

CONSTANT NORMALIZATION 1

VAR freq MAG 51

DATA S[1,1] RI
DATA S[1,2] RI
DATA S[1,3] RI
DATA S[2,1] RI
DATA S[2,2] RI
DATA S[2,3] RI
DATA S[3,1] RI
DATA S[3,2] RI
DATA S[3,3] RI
DATA PORTZ[1] RI
DATA PORTZ[2] RI
DATA PORTZ[3] RI

VAR_LIST_BEGIN
	 2400000000
	 2402000000
	 2404000000
	 2406000000
	 2408000000
	 2410000000
	 2412000000
	 2414000000
	 2416000000
	 2418000000
	 2420000000
	 2422000000
	 2424000000
	 2426000000
	 2428000000
	 2430000000
	 2432000000
	 2434000000
	 2436000000
	 2438000000
	 2440000000
	 2442000000
	 2444000000
	 2446000000
	 2448000000
	 2450000000
	 2452000000
	 2454000000
	 2456000000
	 2458000000
	 2460000000
	 2462000000
	 2464000000
	 2466000000
	 2468000000
	 2470000000
	 2472000000
	 2474000000
	 2476000000
	 2478000000
	 2480000000
	 2482000000
	 2484000000
	 2486000000
	 2488000000
	 2490000000
	 2492000000
	 2494000000
	 2496000000
	 2498000000
	 2500000000
VAR_LIST_END

BEGIN
	 0.0385095678,	 0.0626144654
	 0.0385884933,	 0.0634189583
	 0.0387062118,	 0.064225267
	 0.0388640724,	 0.0650312071
	 0.0390633184,	 0.0658343894
	 0.0393050619,	 0.0666322196
	 0.0395902561,	 0.0674219003
	 0.0399196651,	 0.0682004344
	 0.0402938312,	 0.0689646387
	 0.0407130406,	 0.0697111436
	 0.0411773164,	 0.0704364505
	 0.0416863484,	 0.0711369026
	 0.0422394907,	 0.0718087504
	 0.0428357303,	 0.0724481789
	 0.0434736599,	 0.0730513434
	 0.0441514646,	 0.0736144216
	 0.0448669068,	 0.0741336582
	 0.0456173259,	 0.0746054255
	 0.0463996333,	 0.0750262725
	 0.0472103313,	 0.0753929868
	 0.0480455302,	 0.0757026547
	 0.0489009777,	 0.0759527125
	 0.0497721003,	 0.0761410028
	 0.0506540504,	 0.0762658205
	 0.0515417616,	 0.0763259529
	 0.0524300126,	 0.0763207115
	 0.053313498,	 0.0762499579
	 0.0541818872,	 0.0761149367
	 0.0550400106,	 0.0759152392
	 0.0558776652,	 0.075652939
	 0.0566905297,	 0.0753299298
	 0.0574733677,	 0.0749488106
	 0.0582217577,	 0.0745125907
	 0.0589359697,	 0.0740223557
	 0.0596037923,	 0.0734862473
	 0.0602265352,	 0.0729061894
	 0.0608015713,	 0.0722864117
	 0.0613267619,	 0.0716312927
	 0.061800453,	 0.070945296
	 0.0622214647,	 0.0702329129
	 0.0625890815,	 0.0694986021
	 0.0629030243,	 0.068746736
	 0.0631634255,	 0.0679815591
	 0.0633707901,	 0.0672071433
	 0.0635259621,	 0.0664273584
	 0.0636300855,	 0.0656458459
	 0.0636845637,	 0.0648659986
	 0.0636910193,	 0.0640909473
	 0.0636512572,	 0.0633235536
	 0.0635672251,	 0.0625664062
	 0.0634409835,	 0.0618218223
END
BEGIN
	-0.0712489229,	 0.187227687
	-0.067502352,	 0.188215771
	-0.0636673617,	 0.189073673
	-0.0597481981,	 0.189792074
	-0.0557500165,	 0.190361552
	-0.0516789473,	 0.190772659
	-0.0475421507,	 0.191016022
	-0.0433478669,	 0.191082443
	-0.0391054516,	 0.190963045
	-0.0348254181,	 0.190649383
	-0.0305193768,	 0.190133589
	-0.0262001243,	 0.189408552
	-0.0218815447,	 0.18846806
	-0.0175785668,	 0.187306972
	-0.0133070811,	 0.185921383
	-0.00908382931,	 0.184308793
	-0.00492626316,	 0.182468244
	-0.000852377159,	 0.180400469
	 0.00311948408,	 0.178108009
	 0.0069708397,	 0.175595296
	 0.0106833191,	 0.172868723
	 0.0142389084,	 0.16993667
	 0.0176202141,	 0.166809486
	 0.0208107274,	 0.163499441
	 0.0237950841,	 0.160020626
	 0.026559312,	 0.156388821
	 0.0290910542,	 0.152621313
	 0.0313713766,	 0.148756035
	 0.0334096407,	 0.144774307
	 0.0351898807,	 0.140715461
	 0.0367086638,	 0.136597728
	 0.037962861,	 0.132444591
	 0.0389525147,	 0.12827749
	 0.0396814299,	 0.124096912
	 0.0401499218,	 0.119963665
	 0.0403669484,	 0.115876686
	 0.0403406148,	 0.111854167
	 0.0400806128,	 0.107913012
	 0.0395979959,	 0.10406871
	 0.0389049745,	 0.100335245
	 0.0380146821,	 0.0967249906
	 0.0369409532,	 0.0932486809
	 0.0356981046,	 0.0899154052
	 0.0343007293,	 0.0867326309
	 0.0327635053,	 0.0837062519
	 0.0311010218,	 0.0808406593
	 0.029327626,	 0.0781388299
	 0.0274572903,	 0.0756024276
	 0.0255035014,	 0.0732319133
	 0.023479168,	 0.0710266626
	 0.0213965429,	 0.0689850743
END
BEGIN
	 0.80053703,	-0.523379687
	 0.79942337,	-0.523951158
	 0.798285677,	-0.524499149
	 0.797124427,	-0.525021561
	 0.795940274,	-0.52551623
	 0.794734075,	-0.525980948
	 0.7935069,	-0.526413477
	 0.792260049,	-0.526811569
	 0.790995065,	-0.527172995
	 0.789713753,	-0.527495561
	 0.788418157,	-0.527777154
	 0.787110607,	-0.528015757
	 0.785793694,	-0.528209495
	 0.784470265,	-0.528356667
	 0.783143425,	-0.528455787
	 0.781816509,	-0.52850562
	 0.780493065,	-0.528505218
	 0.779176827,	-0.528453958
	 0.777871677,	-0.528351574
	 0.776581607,	-0.528198182
	 0.77531067,	-0.527994309
	 0.774062931,	-0.527740903
	 0.772842411,	-0.527439345
	 0.771653032,	-0.527091449
	 0.770498558,	-0.526699453
	 0.769382542,	-0.526266002
	 0.768308263,	-0.525794119
	 0.767281463,	-0.525290503
	 0.76629898,	-0.524752293
	 0.765366001,	-0.524186601
	 0.764484028,	-0.523596997
	 0.7636547,	-0.522988203
	 0.762878923,	-0.522364633
	 0.76215571,	-0.521726828
	 0.761488054,	-0.521086746
	 0.760873841,	-0.520444832
	 0.760312182,	-0.519805173
	 0.759801809,	-0.519171658
	 0.759341112,	-0.518547945
	 0.758928177,	-0.517937431
	 0.758560832,	-0.517343222
	 0.758236693,	-0.516768116
	 0.757953202,	-0.516214593
	 0.757707679,	-0.515684812
	 0.757497355,	-0.515180612
	 0.757319419,	-0.514703518
	 0.757171045,	-0.514254754
	 0.757049432,	-0.513835259
	 0.756951825,	-0.513445702
	 0.756875542,	-0.513086504
	 0.756817994,	-0.512757864
END
BEGIN
	-0.0712489229,	 0.187227687
	-0.067502352,	 0.188215771
	-0.0636673617,	 0.189073673
	-0.0597481981,	 0.189792074
	-0.0557500165,	 0.190361552
	-0.0516789473,	 0.190772659
	-0.0475421507,	 0.191016022
	-0.0433478669,	 0.191082443
	-0.0391054516,	 0.190963045
	-0.0348254181,	 0.190649383
	-0.0305193768,	 0.190133589
	-0.0262001243,	 0.189408552
	-0.0218815447,	 0.18846806
	-0.0175785668,	 0.187306972
	-0.0133070811,	 0.185921383
	-0.00908382931,	 0.184308793
	-0.00492626316,	 0.182468244
	-0.000852377159,	 0.180400469
	 0.00311948408,	 0.178108009
	 0.0069708397,	 0.175595296
	 0.0106833191,	 0.172868723
	 0.0142389084,	 0.16993667
	 0.0176202141,	 0.166809486
	 0.0208107274,	 0.163499441
	 0.0237950841,	 0.160020626
	 0.026559312,	 0.156388821
	 0.0290910542,	 0.152621313
	 0.0313713766,	 0.148756035
	 0.0334096407,	 0.144774307
	 0.0351898807,	 0.140715461
	 0.0367086638,	 0.136597728
	 0.037962861,	 0.132444591
	 0.0389525147,	 0.12827749
	 0.0396814299,	 0.124096912
	 0.0401499218,	 0.119963665
	 0.0403669484,	 0.115876686
	 0.0403406148,	 0.111854167
	 0.0400806128,	 0.107913012
	 0.0395979959,	 0.10406871
	 0.0389049745,	 0.100335245
	 0.0380146821,	 0.0967249906
	 0.0369409532,	 0.0932486809
	 0.0356981046,	 0.0899154052
	 0.0343007293,	 0.0867326309
	 0.0327635053,	 0.0837062519
	 0.0311010218,	 0.0808406593
	 0.029327626,	 0.0781388299
	 0.0274572903,	 0.0756024276
	 0.0255035014,	 0.0732319133
	 0.023479168,	 0.0710266626
	 0.0213965429,	 0.0689850743
END
BEGIN
	 0.303211226,	 0.629248316
	 0.31275617,	 0.616750367
	 0.322057573,	 0.603681824
	 0.331075186,	 0.590035938
	 0.339766383,	 0.575808728
	 0.348086274,	 0.560999388
	 0.355987912,	 0.545610681
	 0.363422512,	 0.529649351
	 0.370339876,	 0.513126525
	 0.376688621,	 0.496058148
	 0.382416845,	 0.478465082
	 0.387472476,	 0.4603738
	 0.391804002,	 0.441816393
	 0.395361121,	 0.4228308
	 0.398095461,	 0.403460907
	 0.399961408,	 0.38375655
	 0.400916857,	 0.363773374
	 0.400924092,	 0.343572596
	 0.399950597,	 0.323220625
	 0.397969801,	 0.302788561
	 0.394961887,	 0.282351522
	 0.390914399,	 0.261987875
	 0.385822791,	 0.241778346
	 0.37969085,	 0.221805021
	 0.372530951,	 0.202150273
	 0.364364174,	 0.182895639
	 0.355220189,	 0.164120679
	 0.345185837,	 0.145981175
	 0.334213475,	 0.128387718
	 0.322400971,	 0.111489466
	 0.309799823,	 0.0953378089
	 0.296481916,	 0.0799963449
	 0.282518543,	 0.0655129728
	 0.267915065,	 0.0518685983
	 0.252883028,	 0.0392134742
	 0.237434395,	 0.0275078481
	 0.221647581,	 0.0167655715
	 0.205600301,	 0.00699235548
	 0.189368612,	-0.00181375214
	 0.173026183,	-0.00966189816
	 0.156643415,	-0.0165678885
	 0.140286854,	-0.0225535128
	 0.124018674,	-0.0276458364
	 0.107896297,	-0.0318764662
	 0.0919721274,	-0.0352808075
	 0.0762933963,	-0.037897332
	 0.0609021135,	-0.0397668733
	 0.0458350992,	-0.04093196
	 0.0311241119,	-0.0414362007
	 0.0167960232,	-0.0413237213
	 0.00287303866,	-0.0406386658
END
BEGIN
	-0.00588859472,	 0.139258707
	-0.00783167357,	 0.141403887
	-0.00974986417,	 0.143676211
	-0.0116351772,	 0.146078791
	-0.0134790066,	 0.14861428
	-0.0152721479,	 0.151284771
	-0.0170048185,	 0.154091712
	-0.0186666885,	 0.157035809
	-0.020246951,	 0.160116928
	-0.0217343444,	 0.163333996
	-0.0231172963,	 0.166684946
	-0.0243839522,	 0.170166569
	-0.0255223352,	 0.173774475
	-0.0265204654,	 0.177503016
	-0.0273665065,	 0.181345241
	-0.0280489329,	 0.185292856
	-0.028556694,	 0.18933622
	-0.0288793997,	 0.19346436
	-0.0290075121,	 0.197665009
	-0.028932511,	 0.201924681
	-0.0286470961,	 0.206228777
	-0.0281453401,	 0.210561708
	-0.0274228439,	 0.214907067
	-0.0264768631,	 0.219247805
	-0.0253064094,	 0.223566449
	-0.0239123186,	 0.227845323
	-0.0222972808,	 0.232066791
	-0.0204727333,	 0.236195416
	-0.0184321966,	 0.240250963
	-0.0161896617,	 0.244198896
	-0.0137533632,	 0.248026441
	-0.0111354932,	 0.251717425
	-0.00834868163,	 0.25525894
	-0.00539456429,	 0.258654398
	-0.00231076963,	 0.261864407
	 0.00089881422,	 0.264896341
	 0.0042186528,	 0.267743992
	 0.00763300819,	 0.270402855
	 0.0111261548,	 0.272870075
	 0.0146825485,	 0.27514438
	 0.018287033,	 0.277226005
	 0.0219249893,	 0.279116585
	 0.0255824711,	 0.280819023
	 0.0292463153,	 0.282337366
	 0.0329042285,	 0.283676651
	 0.03654485,	 0.284842772
	 0.0401577925,	 0.28584233
	 0.0437336624,	 0.2866825
	 0.0472640632,	 0.287370891
	 0.0507415804,	 0.287915434
	 0.0541597555,	 0.288324254
END
BEGIN
	 0.80053703,	-0.523379687
	 0.79942337,	-0.523951158
	 0.798285677,	-0.524499149
	 0.797124427,	-0.525021561
	 0.795940274,	-0.52551623
	 0.794734075,	-0.525980948
	 0.7935069,	-0.526413477
	 0.792260049,	-0.526811569
	 0.790995065,	-0.527172995
	 0.789713753,	-0.527495561
	 0.788418157,	-0.527777154
	 0.787110607,	-0.528015757
	 0.785793694,	-0.528209495
	 0.784470265,	-0.528356667
	 0.783143425,	-0.528455787
	 0.781816509,	-0.52850562
	 0.780493065,	-0.528505218
	 0.779176827,	-0.528453958
	 0.777871677,	-0.528351574
	 0.776581607,	-0.528198182
	 0.77531067,	-0.527994309
	 0.774062931,	-0.527740903
	 0.772842411,	-0.527439345
	 0.771653032,	-0.527091449
	 0.770498558,	-0.526699453
	 0.769382542,	-0.526266002
	 0.768308263,	-0.525794119
	 0.767281463,	-0.525290503
	 0.76629898,	-0.524752293
	 0.765366001,	-0.524186601
	 0.764484028,	-0.523596997
	 0.7636547,	-0.522988203
	 0.762878923,	-0.522364633
	 0.76215571,	-0.521726828
	 0.761488054,	-0.521086746
	 0.760873841,	-0.520444832
	 0.760312182,	-0.519805173
	 0.759801809,	-0.519171658
	 0.759341112,	-0.518547945
	 0.758928177,	-0.517937431
	 0.758560832,	-0.517343222
	 0.758236693,	-0.516768116
	 0.757953202,	-0.516214593
	 0.757707679,	-0.515684812
	 0.757497355,	-0.515180612
	 0.757319419,	-0.514703518
	 0.757171045,	-0.514254754
	 0.757049432,	-0.513835259
	 0.756951825,	-0.513445702
	 0.756875542,	-0.513086504
	 0.756817994,	-0.512757864
END
BEGIN
	-0.00588859472,	 0.139258707
	-0.00783167357,	 0.141403887
	-0.00974986417,	 0.143676211
	-0.0116351772,	 0.146078791
	-0.0134790066,	 0.14861428
	-0.0152721479,	 0.151284771
	-0.0170048185,	 0.154091712
	-0.0186666885,	 0.157035809
	-0.020246951,	 0.160116928
	-0.0217343444,	 0.163333996
	-0.0231172963,	 0.166684946
	-0.0243839522,	 0.170166569
	-0.0255223352,	 0.173774475
	-0.0265204654,	 0.177503016
	-0.0273665065,	 0.181345241
	-0.0280489329,	 0.185292856
	-0.028556694,	 0.18933622
	-0.0288793997,	 0.19346436
	-0.0290075121,	 0.197665009
	-0.028932511,	 0.201924681
	-0.0286470961,	 0.206228777
	-0.0281453401,	 0.210561708
	-0.0274228439,	 0.214907067
	-0.0264768631,	 0.219247805
	-0.0253064094,	 0.223566449
	-0.0239123186,	 0.227845323
	-0.0222972808,	 0.232066791
	-0.0204727333,	 0.236195416
	-0.0184321966,	 0.240250963
	-0.0161896617,	 0.244198896
	-0.0137533632,	 0.248026441
	-0.0111354932,	 0.251717425
	-0.00834868163,	 0.25525894
	-0.00539456429,	 0.258654398
	-0.00231076963,	 0.261864407
	 0.00089881422,	 0.264896341
	 0.0042186528,	 0.267743992
	 0.00763300819,	 0.270402855
	 0.0111261548,	 0.272870075
	 0.0146825485,	 0.27514438
	 0.018287033,	 0.277226005
	 0.0219249893,	 0.279116585
	 0.0255824711,	 0.280819023
	 0.0292463153,	 0.282337366
	 0.0329042285,	 0.283676651
	 0.03654485,	 0.284842772
	 0.0401577925,	 0.28584233
	 0.0437336624,	 0.2866825
	 0.0472640632,	 0.287370891
	 0.0507415804,	 0.287915434
	 0.0541597555,	 0.288324254
END
BEGIN
	 0.0524057588,	 0.130166697
	 0.0530876883,	 0.129932731
	 0.0537701842,	 0.12967093
	 0.0544517364,	 0.129380311
	 0.0551306843,	 0.129059957
	 0.0558052215,	 0.128709045
	 0.0564733961,	 0.128326856
	 0.05713311,	 0.1279128
	 0.0577821334,	 0.127466445
	 0.0584180958,	 0.126987522
	 0.0590385348,	 0.126475968
	 0.0596408666,	 0.125931931
	 0.0602224372,	 0.1253558
	 0.060780539,	 0.124748225
	 0.0613124348,	 0.124110126
	 0.061815397,	 0.123442716
	 0.0622867351,	 0.122747504
	 0.0627238408,	 0.122026304
	 0.0631242225,	 0.121281227
	 0.0634855471,	 0.120514684
	 0.0638056849,	 0.119729366
	 0.0640827458,	 0.118928223
	 0.0643151192,	 0.118114445
	 0.0645015079,	 0.117291419
	 0.0646409568,	 0.116462698
	 0.0647328773,	 0.115631954
	 0.0647770662,	 0.114802932
	 0.0647742221,	 0.113982941
	 0.0647241196,	 0.113168577
	 0.0646280238,	 0.112367074
	 0.0644870596,	 0.111581411
	 0.0643030556,	 0.110815441
	 0.0640780583,	 0.110072361
	 0.0638126776,	 0.109352
	 0.0635127033,	 0.108663151
	 0.0631793794,	 0.108004927
	 0.0628156342,	 0.107379269
	 0.0624245084,	 0.106787779
	 0.0620091136,	 0.106231719
	 0.0615725899,	 0.105712015
	 0.0611180638,	 0.105229269
	 0.0606486096,	 0.104783772
	 0.0601672197,	 0.104375523
	 0.0596767719,	 0.104004255
	 0.0591800087,	 0.103669457
	 0.0586795174,	 0.103370404
	 0.0581777158,	 0.103106183
	 0.0576768409,	 0.10287572
	 0.0571789439,	 0.102677811
	 0.056685887,	 0.102511141
	 0.0561993445,	 0.102374315
END
BEGIN
	 50 ,	 0 
	 50 ,	 0 
	 50 ,	 0 
	 50 ,	 0 
	 50 ,	 0 
	 50 ,	 0 
	 50 ,	 0 
	 50 ,	 0 
	 50 ,	 0 
	 50 ,	 0 
	 50 ,	 0 
	 50 ,	 0 
	 50 ,	 0 
	 50 ,	 0 
	 50 ,	 0 
	 50 ,	 0 
	 50 ,	 0 
	 50 ,	 0 
	 50 ,	 0 
	 50 ,	 0 
	 50 ,	 0 
	 50 ,	 0 
	 50 ,	 0 
	 50 ,	 0 
	 50 ,	 0 
	 50 ,	 0 
	 50 ,	 0 
	 50 ,	 0 
	 50 ,	 0 
	 50 ,	 0 
	 50 ,	 0 
	 50 ,	 0 
	 50 ,	 0 
	 50 ,	 0 
	 50 ,	 0 
	 50 ,	 0 
	 50 ,	 0 
	 50 ,	 0 
	 50 ,	 0 
	 50 ,	 0 
	 50 ,	 0 
	 50 ,	 0 
	 50 ,	 0 
	 50 ,	 0 
	 50 ,	 0 
	 50 ,	 0 
	 50 ,	 0 
	 50 ,	 0 
	 50 ,	 0 
	 50 ,	 0 
	 50 ,	 0 
END
BEGIN
	 50 ,	 0 
	 50 ,	 0 
	 50 ,	 0 
	 50 ,	 0 
	 50 ,	 0 
	 50 ,	 0 
	 50 ,	 0 
	 50 ,	 0 
	 50 ,	 0 
	 50 ,	 0 
	 50 ,	 0 
	 50 ,	 0 
	 50 ,	 0 
	 50 ,	 0 
	 50 ,	 0 
	 50 ,	 0 
	 50 ,	 0 
	 50 ,	 0 
	 50 ,	 0 
	 50 ,	 0 
	 50 ,	 0 
	 50 ,	 0 
	 50 ,	 0 
	 50 ,	 0 
	 50 ,	 0 
	 50 ,	 0 
	 50 ,	 0 
	 50 ,	 0 
	 50 ,	 0 
	 50 ,	 0 
	 50 ,	 0 
	 50 ,	 0 
	 50 ,	 0 
	 50 ,	 0 
	 50 ,	 0 
	 50 ,	 0 
	 50 ,	 0 
	 50 ,	 0 
	 50 ,	 0 
	 50 ,	 0 
	 50 ,	 0 
	 50 ,	 0 
	 50 ,	 0 
	 50 ,	 0 
	 50 ,	 0 
	 50 ,	 0 
	 50 ,	 0 
	 50 ,	 0 
	 50 ,	 0 
	 50 ,	 0 
	 50 ,	 0 
END
BEGIN
	 50 ,	 0 
	 50 ,	 0 
	 50 ,	 0 
	 50 ,	 0 
	 50 ,	 0 
	 50 ,	 0 
	 50 ,	 0 
	 50 ,	 0 
	 50 ,	 0 
	 50 ,	 0 
	 50 ,	 0 
	 50 ,	 0 
	 50 ,	 0 
	 50 ,	 0 
	 50 ,	 0 
	 50 ,	 0 
	 50 ,	 0 
	 50 ,	 0 
	 50 ,	 0 
	 50 ,	 0 
	 50 ,	 0 
	 50 ,	 0 
	 50 ,	 0 
	 50 ,	 0 
	 50 ,	 0 
	 50 ,	 0 
	 50 ,	 0 
	 50 ,	 0 
	 50 ,	 0 
	 50 ,	 0 
	 50 ,	 0 
	 50 ,	 0 
	 50 ,	 0 
	 50 ,	 0 
	 50 ,	 0 
	 50 ,	 0 
	 50 ,	 0 
	 50 ,	 0 
	 50 ,	 0 
	 50 ,	 0 
	 50 ,	 0 
	 50 ,	 0 
	 50 ,	 0 
	 50 ,	 0 
	 50 ,	 0 
	 50 ,	 0 
	 50 ,	 0 
	 50 ,	 0 
	 50 ,	 0 
	 50 ,	 0 
	 50 ,	 0 
END
